"FID","CEV_VER","03DD"
"FID=SEL-710-R407-V0-Z006004-D20111123","2.0.1","0A02"
"MONTH","DAY","YEAR","HOUR","MIN","SEC","MSEC","0ACA"
4,22,2013,9,17,46,972,"043F"
"REC_NUM","NUM_CH_A","NUM_CH_D","FREQ","NFREQ","SAM/CYC_A","SAM/CYC_D","NUM_OF_CYC","PRIM_VAL","CTR_IA","CTR_IB","CTR_IC","CTR_IN","CTR_IG","PTR_VAB","PTR_VBC","PTR_VCA","CTR_IA87","CTR_IB87","CTR_IC87","EVENT","GROUP","IA(A)","IB(A)","IC(A)","IN(A)","IG(A)","VAB(V)","VBC(V)","VCA(V)","IA87(A)","IB87(A)","IC87(A)","WDG(C)","BRG(C)","AMB(C)","OTH(C)","52DA"
1,12,896,59.9,60,4,4,64,"YES",160.00,160.00,160.00,2000.00,160.00,35.00,35.00,35.00,100.00,100.00,100.00,"Curr Imbal Trip",1,628.8,645.6,1284.7,0.45,13.49,3072.762,2423.939,3905.496,0.10,0.08,0.00,"75","NA","NA","NA","2C19"
"IA(A)","IB(A)","IC(A)","IN(A)","IG(A)","VAB(V)","VBC(V)","VCA(V)","IA87(A)","IB87(A)","IC87(A)","FREQ","TRIG","49T LOSSTRIP JAMTRIP 46UBT 50P1T RTDT PTCTRIP 50G1T VART 37PT 27P1T 59P1T 47T 55T SPDSTR 50N1T SMTRIP 81D1T 81D2T OTHTRIP AMBTRIP PTCFLT RTDFLT BFI COMMIDLE COMMLOSS REMTRIP COMMFLT CFGFLT 49T_STR 49T_RTR BFT ORED51T 87M1T 87M2T 50Q1T 50Q2T * * * 49A LOSSALRM JAMALRM 46UBA RTDA 55A 50N2T 50G2T VARA 37PA 27P2T 59P2T SPDSAL 81D3T 81D4T OTHALRM AMBALRM SALARM WARNING LOADUP LOADLOW * 50S 50P2T STOPPED RUNNING STARTING STAR DELTA START IRIGOK FAULT TRIP OUT101 OUT102 OUT103 OUT301 OUT302 OUT303 OUT304 OUT401 OUT402 OUT403 OUT404 * * * * 50P1P 50P2P 50N1P 50N2P 50G1P 50G2P 27P1 59P1 IN101 IN102 * * * * * * IN301 IN302 IN303 IN304 * * * * IN401 IN402 IN403 IN404 * * * * * * * * * * * * WDGALRM WDGTRIP BRGALRM BRGTRIP THERMLO NOSLO TBSLO ABSLO 50Q1P RTDIN TRGTR SPEEDSW RTDBIAS 52A SPEED2 HALARM RTD1A RTD1T RTD2A RTD2T RTD3A RTD3T RTD4A RTD4T RTD5A RTD5T RTD6A RTD6T RTD7A RTD7T RTD8A RTD8T RTD9A RTD9T RTD10A RTD10T RTD11A RTD11T RTD12A RTD12T 46UBTC 48LJTC 50EFTC 50PTC 37LLTC 66JOGTC 49PTCTC 49RTDTC RSTENRGY RSTMXMN DSABLSET RSTTRGT BLKPROT LOP 27P2 59P2 SG1 SG2 SG3 MSRTRG 50Q2P DI_C DI_B DI_A STR STOP EMRSTR ER ULTRIP TR FREQTRK STREQ DNAUX1 DNAUX2 DNAUX3 DNAUX4 DNAUX5 DNAUX6 DNAUX7 DNAUX8 DNAUX9 DNAUX10 DNAUX11 RELAY_EN 87M1 87M2 87M1TC 87M2TC PB01 PB02 PB03 PB04 PB01_PUL PB02_PUL PB03_PUL PB04_PUL PB1A_LED PB1B_LED PB2A_LED PB2B_LED PB3A_LED PB3B_LED PB4A_LED PB4B_LED * * T01_LED T02_LED T03_LED T04_LED T05_LED T06_LED LB01 LB02 LB03 LB04 LB05 LB06 LB07 LB08 LB09 LB10 LB11 LB12 LB13 LB14 LB15 LB16 LB17 LB18 LB19 LB20 LB21 LB22 LB23 LB24 LB25 LB26 LB27 LB28 LB29 LB30 LB31 LB32 RB01 RB02 RB03 RB04 RB05 RB06 RB07 RB08 RB09 RB10 RB11 RB12 RB13 RB14 RB15 RB16 RB17 RB18 RB19 RB20 RB21 RB22 RB23 RB24 RB25 RB26 RB27 RB28 RB29 RB30 RB31 RB32 SV01 SV02 SV03 SV04 SV05 SV06 SV07 SV08 SV01T SV02T SV03T SV04T SV05T SV06T SV07T SV08T SV09 SV10 SV11 SV12 SV13 SV14 SV15 SV16 SV09T SV10T SV11T SV12T SV13T SV14T SV15T SV16T SV17 SV18 SV19 SV20 SV21 SV22 SV23 SV24 SV17T SV18T SV19T SV20T SV21T SV22T SV23T SV24T SV25 SV26 SV27 SV28 SV29 SV30 SV31 SV32 SV25T SV26T SV27T SV28T SV29T SV30T SV31T SV32T LT01 LT02 LT03 LT04 LT05 LT06 LT07 LT08 LT09 LT10 LT11 LT12 LT13 LT14 LT15 LT16 LT17 LT18 LT19 LT20 LT21 LT22 LT23 LT24 LT25 LT26 LT27 LT28 LT29 LT30 LT31 LT32 SC01QU SC02QU SC03QU SC04QU SC05QU SC06QU SC07QU SC08QU SC01QD SC02QD SC03QD SC04QD SC05QD SC06QD SC07QD SC08QD SC09QU SC10QU SC11QU SC12QU SC13QU SC14QU SC15QU SC16QU SC09QD SC10QD SC11QD SC12QD SC13QD SC14QD SC15QD SC16QD SC17QU SC18QU SC19QU SC20QU SC21QU SC22QU SC23QU SC24QU SC17QD SC18QD SC19QD SC20QD SC21QD SC22QD SC23QD SC24QD SC25QU SC26QU SC27QU SC28QU SC29QU SC30QU SC31QU SC32QU SC25QD SC26QD SC27QD SC28QD SC29QD SC30QD SC31QD SC32QD * * * * * * * * * * * * * * * * * * * * * * * * * * * * * * * * * * * * * * * * * * * * * * * * * * * * * * * * * * * * * * * * * * * * * * * * * * * * * * * * * * * * * * * * * * * * * * * * * * * * * * * * * * * * * * * * * * * * * * * * * * * * * * * * * * * * * * * * * * * * * * * * * * * * * * * * * * * * * * * * * * * * * * * * * * * * * * * * * * * * * * * * * * * * * * * * * * * * * * * * RMB8A RMB7A RMB6A RMB5A RMB4A RMB3A RMB2A RMB1A TMB8A TMB7A TMB6A TMB5A TMB4A TMB3A TMB2A TMB1A RMB8B RMB7B RMB6B RMB5B RMB4B RMB3B RMB2B RMB1B TMB8B TMB7B TMB6B TMB5B TMB4B TMB3B TMB2B TMB1B LBOKB CBADB RBADB ROKB LBOKA CBADA RBADA ROKA LINKA * LINKFAIL PASEL * * * * VB001 VB002 VB003 VB004 VB005 VB006 VB007 VB008 VB009 VB010 VB011 VB012 VB013 VB014 VB015 VB016 VB017 VB018 VB019 VB020 VB021 VB022 VB023 VB024 VB025 VB026 VB027 VB028 VB029 VB030 VB031 VB032 VB033 VB034 VB035 VB036 VB037 VB038 VB039 VB040 VB041 VB042 VB043 VB044 VB045 VB046 VB047 VB048 VB049 VB050 VB051 VB052 VB053 VB054 VB055 VB056 VB057 VB058 VB059 VB060 VB061 VB062 VB063 VB064 VB065 VB066 VB067 VB068 VB069 VB070 VB071 VB072 VB073 VB074 VB075 VB076 VB077 VB078 VB079 VB080 VB081 VB082 VB083 VB084 VB085 VB086 VB087 VB088 VB089 VB090 VB091 VB092 VB093 VB094 VB095 VB096 VB097 VB098 VB099 VB100 VB101 VB102 VB103 VB104 VB105 VB106 VB107 VB108 VB109 VB110 VB111 VB112 VB113 VB114 VB115 VB116 VB117 VB118 VB119 VB120 VB121 VB122 VB123 VB124 VB125 VB126 VB127 VB128 51AP 51BP 51CP 51P1P 51P2P 51QP 51G1P 51G2P 51AT 51BT 51CT 51P1T 51P2T 51QT 51G1T 51G2T 51AR 51BR 51CR 51P1R 51P2R 51QR 51G1R 51G2R BKMON BCW BCWA BCWB BCWC * * TSOK TQUAL1 TQUAL2 TQUAL4 TQUAL8 DST DSTP LPSEC LPSECP TSNTPB TSNTPP TUTCS TUTC1 TUTC2 TUTC4 TUTC8 TUTCH * * * * * * * *","11B3"
8.5,346.7,-364.3,0.1,-9.1,-3373,3723,-350,-0.1,0.1,-0.2,60.0, ,"000000000000000042400000003030000004000000FF00800200110004000000000000000000040C00000000000000000000000000000000000000000000000000000000000000000000000000000000000000000000000090000000000000000000000000000000000000FF00000000","36E1"
-410.1,218.1,188.8,-0.0,-3.2,-2353,-1749,4102,-0.1,-0.1,-0.2,60.0, ,"000000000000000042400000003030000004000000FF00800200110004000000000000000000040C00000000000000000000000000000000000000000000000000000000000000000000000000000000000000000000000090000000000000000000000000000000000000FF00000000","37C1"
-13.9,-353.6,363.7,-0.1,-3.7,3374,-3720,346,0.1,-0.2,0.1,60.0, ,"000000000000000042400000003030000004000000FF00800200110004000000000000000000040C00000000000000000000000000000000000000000000000000000000000000000000000000000000000000000000000090000000000000000000000000000000000000FF00000000","3714"
412.8,-221.9,-192.0,0.0,-1.1,2349,1751,-4100,-0.2,0.1,0.0,60.0, ,"000000000000000042400000003030000004000000FF00800200110004000000000000000000040C00000000000000000000000000000000000000000000000000000000000000000000000000000000000000000000000090000000000000000000000000000000000000FF00000000","3730"
8.5,354.1,-371.7,0.1,-9.1,-3376,3722,-345,0.0,-0.1,-0.1,60.0, ,"000000000000000042400000003030000004000000FF00800200110004000000000000000000040C00000000000000000000000000000000000000000000000000000000000000000000000000000000000000000000000090000000000000000000000000000000000000FF00000000","36E0"
-419.2,219.7,193.1,-0.1,-6.4,-2348,-1752,4100,0.1,0.0,0.0,60.0, ,"000000000000000042400000003030000004000000FF00800200110004000000000000000000040C00000000000000000000000000000000000000000000000000000000000000000000000000000000000000000000000090000000000000000000000000000000000000FF00000000","373F"
-8.0,-357.9,374.4,-0.1,8.5,3377,-3721,344,0.0,0.0,0.0,60.0, ,"000000000000000042400000003030000004000000FF00800200110004000000000000000000040C00000000000000000000000000000000000000000000000000000000000000000000000000000000000000000000000090000000000000000000000000000000000000FF00000000","368C"
418.7,-222.9,-199.5,0.1,-3.7,2345,1757,-4102,-0.1,0.0,0.1,60.0, ,"000000000000000042400000003030000004000000FF00800200110004000000000000000000040400000000000000000000000000000000000000000000000000000000000000000000000000000000000000000000000090000000000000000000000000000000000000FF00000000","373F"
4.3,358.9,-373.3,0.1,-10.1,-3382,3721,-339,-0.2,0.0,-0.1,60.0, ,"000000000000000042400000003030000004000000FF008002001100040000000000000000000C0400000000000000000000000000000000000000000000000000000000000000000000000000000000000000000000000090000000000000000000000000000000000000FF00000000","370C"
-421.9,221.3,196.3,-0.1,-4.3,-2342,-1761,4102,0.1,-0.2,-0.2,60.0, ,"000000000000000042400000003030000004000000FF008002001100040000000000000000000C0400000000000000000000000000000000000000000000000000000000000000000000000000000000000000000000000090000000000000000000000000000000000000FF00000000","3790"
-6.4,-361.1,371.2,-0.1,3.7,3385,-3718,333,0.0,-0.2,0.0,60.0, ,"000000000000000042400000003030000004000000FF008002001100040000000000000000000C0400000000000000000000000000000000000000000000000000000000000000000000000000000000000000000000000090000000000000000000000000000000000000FF00000000","36AB"
420.3,-221.9,-197.9,0.1,0.5,2337,1766,-4103,-0.2,0.0,0.1,60.0, ,"000000000000000042400000003030000004000000FF008002001100040000000000000000000C0400000000000000000000000000000000000000000000000000000000000000000000000000000000000000000000000090000000000000000000000000000000000000FF00000000","3715"
5.9,358.9,-374.9,0.1,-10.1,-3389,3717,-328,0.1,0.1,-0.2,60.0, ,"000000000000000042400000003030000004000000FF008002001100040000000000000000000C0400000000000000000000000000000000000000000000000000000000000000000000000000000000000000000000000090000000000000000000000000000000000000FF00000000","36F8"
-421.9,221.3,202.1,-0.1,1.6,-2333,-1770,4103,0.0,-0.2,0.0,60.0, ,"000000000000000042400000003030000004000000FF008002001100040000000000000000000C0400000000000000000000000000000000000000000000000000000000000000000000000000000000000000000000000090000000000000000000000000000000000000FF00000000","3726"
-8.0,-362.1,371.2,-0.1,1.1,3390,-3712,321,0.0,-0.2,0.1,60.0, ,"000000000000000042400000003030000004000000FF008002001100040000000000000000000C0400000000000000000000000000000000000000000000000000000000000000000000000000000000000000000000000090000000000000000000000000000000000000FF00000000","3696"
421.3,-221.9,-204.3,0.0,-4.8,2329,1776,-4104,0.1,0.1,-0.2,60.0, ,"000000000000000042400000003030000004000000FF008002001100040000000000000000000C0400000000000000000000000000000000000000000000000000000000000000000000000000000000000000000000000090000000000000000000000000000000000000FF00000000","373C"
4.3,358.9,-369.1,0.1,-5.9,-3394,3710,-316,-0.2,0.1,0.0,60.0, ,"000000000000000042400000003030000004000000FF008002001100040000000000000000000C0400000000000000000000000000000000000000000000000000000000000000000000000000000000000000000000000090000000000000000000000000000000000000FF00000000","36BA"
-420.8,219.7,197.3,-0.1,-3.7,-2329,-1777,4106,-0.2,-0.2,0.1,60.0, ,"000000000000000042400000003030000004000000FF008002001100040000000000000000000C0400000000000000000000000000000000000000000000000000000000000000000000000000000000000000000000000090000000000000000000000000000000000000FF00000000","37AD"
-4.8,-359.5,363.7,-0.1,-0.5,3396,-3710,314,0.0,0.0,0.0,60.0, ,"000000000000000042400000003030000004000000FF008002001100040000000000000000000C0400000000000000000000000000000000000000000000000000000000000000000000000000000000000000000000000090000000000000000000000000000000000000FF00000000","36B0"
412.8,-218.7,-193.6,0.0,0.5,2325,1782,-4106,0.0,0.1,-0.2,60.0, ,"000000000000000042400000003030000004000000FF008002001100040000000000000000000C0400000000000000000000000000000000000000000000000000000000000000000000000000000000000000000000000090000000000000000000000000000000000000FF00000000","3715"
2.7,353.1,-367.5,0.1,-11.7,-3401,3710,-309,-0.1,-0.2,-0.1,60.0, ,"000000000000000042400000003030000004000000FF008002001100040000000000000000000C0400000000000000000000000000000000000000000000000000000000000000000000000000000000000000000000000090000000000000000000000000000000000000FF00000000","372E"
-411.7,214.9,191.5,-0.1,-5.3,-2321,-1785,4107,0.0,0.0,0.0,60.0, ,"000000000000000042400000003030000004000000FF008002001100040000000000000000000C0400000000000000000000000000000000000000000000000000000000000000000000000000000000000000000000000090000000000000000000000000000000000000FF00000000","373C"
-8.0,-348.8,363.7,-0.1,6.9,3401,-3707,306,0.1,0.1,0.1,60.0, ,"000000000000000042400000003030000004000000FF008002001100040000000000000000000C0400000000000000000000000000000000000000000000000000000000000000000000000000000000000000000000000090000000000000000000000000000000000000FF00000000","3687"
408.0,-218.7,-192.0,0.0,-2.7,2317,1789,-4106,-0.2,-0.2,-0.1,60.0, ,"000000000000000042400000003030000004000000FF008002001100040000000000000000000C0400000000000000000000000000000000000000000000000000000000000000000000000000000000000000000000000090000000000000000000000000000000000000FF00000000","37A0"
7.5,344.0,-361.6,0.1,-10.1,-3402,3706,-305,-0.1,0.0,0.0,60.0, ,"000000000000000042400000003030000004000000FF008002001100040000000000000000000C0400000000000000000000000000000000000000000000000000000000000000000000000000000000000000000000000090000000000000000000000000000000000000FF00000000","36C9"
-404.3,218.1,187.2,-0.1,1.1,-2318,-1790,4108,0.1,-0.1,0.0,60.0, ,"000000000000000042400000003030000004000000FF008002001100040000000000000000000C0400000000000000000000000000000000000000000000000000000000000000000000000000000000000000000000000090000000000000000000000000000000000000FF00000000","3737"
-10.7,-347.2,357.9,-0.1,0.0,3402,-3704,301,-0.2,0.0,-0.2,60.0, ,"000000000000000042400000003030000004000000FF008002001100040000000000000000000C0400000000000000000000000000000000000000000000000000000000000000000000000000000000000000000000000090000000000000000000000000000000000000FF00000000","36FA"
398.9,-217.1,-186.1,0.0,-4.3,2314,1793,-4107,0.0,0.1,0.0,60.0, ,"000000000000000042400000003030000004000000FF008002001100040000000000000000000C0400000000000000000000000000000000000000000000000000000000000000000000000000000000000000000000000090000000000000000000000000000000000000FF00000000","371A"
8.5,344.0,-358.4,0.1,-5.9,-3405,3703,-298,0.1,-0.1,0.1,60.0, ,"000000000000000042400000003030000004000000FF008002001100040000000000000000000C0400000000000000000000000000000000000000000000000000000000000000000000000000000000000000000000000090000000000000000000000000000000000000FF00000000","36B7"
-401.1,213.9,184.0,-0.0,-3.2,-2312,-1792,4104,-0.1,-0.2,-0.1,60.0, ,"000000000000000042400000003030000004000000FF008002001100040000000000000000000C0400000000000000000000000000000000000000000000000000000000000000000000000000000000000000000000000090000000000000000000000000000000000000FF00000000","37B3"
-12.3,-341.3,354.7,-0.1,1.1,3402,-3701,298,-0.1,0.0,-0.1,60.0, ,"000000000000000042400000003030000004000000FF008002001100040000000000000000000C0400000000000000000000000000000000000000000000000000000000000000000000000000000000000000000000000090000000000000000000000000000000000000FF00000000","36FA"
397.9,-214.4,-184.5,0.0,-1.1,2310,1794,-4104,0.0,0.1,0.1,60.0, ,"000000000000000042400000003030000004000000FF008002001100040000000000000000000C0400000000000000000000000000000000000000000000000000000000000000000000000000000000000000000000000090000000000000000000000000000000000000FF00000000","3711"
8.5,336.5,-356.8,0.1,-11.7,-3404,3700,-296,0.0,-0.2,0.0,60.0, ,"000000000000000042400000003030000004000000FF008002001100040000000000000000000C0400000000000000000000000000000000000000000000000000000000000000000000000000000000000000000000000090000000000000000000000000000000000000FF00000000","36E3"
-398.4,212.3,182.4,-0.0,-3.7,-2310,-1793,4104,0.1,0.0,-0.1,60.0, ,"000000000000000042400000003030000004000000FF008002001100040000000000000000000C0C00000000000000000000000000000000000000000000000000000000000000000000000000000000000000000000000090000000000000000000000000000000000000FF00000000","3777"
-10.7,-338.1,353.6,-0.1,4.8,3403,-3699,296,0.0,0.1,-0.2,60.0, ,"000000000000000042400000003030000004000000FF00800200110004000000000000000000040C00000000000000000000000000000000000000000000000000000000000000000000000000000000000000000000000090000000000000000000000000000000000000FF00000000","36EB"
396.3,-212.8,-187.7,0.0,-4.3,2308,1797,-4105,-0.2,-0.2,-0.2,60.0, ,"000000000000000042400000003030000004000000FF00800200110004000000000000000000040C00000000000000000000000000000000000000000000000000000000000000000000000000000000000000000000000090000000000000000000000000000000000000FF00000000","37AC"
8.5,334.9,-355.2,0.1,-11.7,-3401,3700,-299,0.0,-0.2,0.0,60.0, ,"000000000000000042400000003030000004000000FF00800200110004000000000000000000040C00000000000000000000000000000000000000000000000000000000000000000000000000000000000000000000000090000000000000000000000000000000000000FF00000000","36DE"
-401.1,210.7,185.6,-0.0,-4.8,-2309,-1797,4106,-0.1,0.1,0.1,60.0, ,"000000000000000042400000003030000004000000FF00800200110004000000000000000000040C00000000000000000000000000000000000000000000000000000000000000000000000000000000000000000000000090000000000000000000000000000000000000FF00000000","376E"
-10.7,-339.7,354.7,-0.1,4.3,3399,-3697,298,0.0,0.1,0.0,60.0, ,"000000000000000042400000003030000004000000FF00800200110004000000000000000000040C00000000000000000000000000000000000000000000000000000000000000000000000000000000000000000000000090000000000000000000000000000000000000FF00000000","36CE"
398.9,-214.4,-189.3,0.0,-4.8,2308,1798,-4106,-0.1,-0.2,-0.1,60.0, ,"000000000000000042400000003030000004000000FF00800200110004000000000000000000040C00000000000000000000000000000000000000000000000000000000000000000000000000000000000000000000000090000000000000000000000000000000000000FF00000000","37B5"
8.5,344.0,-356.8,0.1,-4.3,-3402,3698,-296,-0.2,0.0,-0.2,60.0, ,"000000000000000042400000003030000004000000FF00800200110004000000000000000000040C00000000000000000000000000000000000000000000000000000000000000000000000000000000000000000000000090000000000000000000000000000000000000FF00000000","36E8"
-402.7,212.3,191.5,-0.1,1.1,-2307,-1798,4105,0.1,0.0,-0.1,60.0, ,"000000000000000042400000003030000004000000FF00800200110004000000000000000000040C00000000000000000000000000000000000000000000000000000000000000000000000000000000000000000000000090000000000000000000000000000000000000FF00000000","3736"
-10.7,-350.4,357.9,-0.1,-3.2,3403,-3697,294,-0.1,0.0,0.0,60.0, ,"000000000000000042400000003030000004000000FF00800200110004000000000000000000040C00000000000000000000000000000000000000000000000000000000000000000000000000000000000000000000000090000000000000000000000000000000000000FF00000000","370F"
405.3,-218.7,-195.2,0.0,-8.5,2305,1802,-4107,-0.1,0.1,0.1,60.0, ,"000000000000000042400000003030000004000000FF00800200110004000000000000000000040C00000000000000000000000000000000000000000000000000000000000000000000000000000000000000000000000090000000000000000000000000000000000000FF00000000","373D"
5.9,351.5,-363.2,0.1,-5.9,-3405,3696,-291,-0.1,-0.3,-0.1,60.0, ,"000000000000000042400000003030000004000000FF00800200110004000000000000000000040C00000000000000000000000000000000000000000000000000000000000000000000000000000000000000000000000090000000000000000000000000000000000000FF00000000","3715"
-410.1,216.5,197.3,-0.1,3.7,-2304,-1802,4107,0.0,0.0,-0.1,60.0, ,"000000000000000042400000003030000004000000FF00800200110004000000000000000000040C00000000000000000000000000000000000000000000000000000000000000000000000000000000000000000000000090000000000000000000000000000000000000FF00000000","3731"
-6.4,-354.7,361.1,-0.1,0.0,3406,-3693,287,0.1,0.0,0.0,60.0, ,"000000000000000042400000003030000004000000FF00800200110004000000000000000000040C00000000000000000000000000000000000000000000000000000000000000000000000000000000000000000000000090000000000000000000000000000000000000FF00000000","367D"
411.2,-217.1,-199.5,0.0,-5.3,2301,1805,-4106,0.0,-0.2,-0.1,60.0, ,"000000000000000042400000003030000004000000FF00800200110004000000000000000000040C00000000000000000000000000000000000000000000000000000000000000000000000000000000000000000000000090000000000000000000000000000000000000FF00000000","375F"
2.7,355.7,-364.3,0.1,-5.9,-3408,3694,-286,-0.1,0.0,-0.2,60.0, ,"000000000000000042400000003030000004000000FF00800200110004000000000000000000040C00000000000000000000000000000000000000000000000000000000000000000000000000000000000000000000000090000000000000000000000000000000000000FF00000000","36EE"
